Circuit: * G:\My Drive\2020-2021\Spring\EE 308\Labs\Lab 1\ltspice\amplifier_loopgain.asc

V1: both pins shorted together -- ignoring.
Direct Newton iteration for .op point succeeded.
Semiconductor Device Operating Points:
                        --- Diodes ---
Name:      d2          d1
Model:   1n4148      1n4148
Id:      7.89e-03    7.89e-03
Vd:      6.82e-01    6.82e-01
Req:     5.75e+00    5.75e+00
CAP:     3.49e-09    3.49e-09

                        --- Bipolar Transistors ---
Name:       q5          q6          q3          q4          q2
Model:    2n2222      2n2907      2n3906      2n3904      2n3904
Ib:      -1.85e-11   -3.47e-04   -3.51e-05    2.78e-05    1.92e-05
Ic:       5.13e-11   -7.25e-02   -7.89e-03    8.23e-03    6.16e-03
Vbe:      2.05e-01   -7.89e-01   -7.07e-01    7.11e-01    7.01e-01
Vbc:     -1.89e+01    3.78e+00    1.43e+01   -8.36e-01   -8.22e+00
Vce:      1.91e+01   -4.57e+00   -1.51e+01    1.55e+00    8.92e+00
BetaDC:  -2.77e+00    2.09e+02    2.25e+02    2.96e+02    3.20e+02
Gm:       1.25e-09    2.35e+00    3.00e-01    3.12e-01    2.35e-01
Rpi:      1.59e+11    7.46e+01    7.37e+02    9.31e+02    1.34e+03
Rx:       1.00e+01    1.00e+01    2.00e+01    2.00e+01    2.00e+01
Ro:       3.67e+12    1.71e+03    1.45e+04    1.22e+04    1.76e+04
Cbe:      2.78e-11    1.01e-09    1.21e-10    1.22e-10    9.52e-11
Cbc:      2.72e-12    4.43e-12    1.67e-12    3.12e-12    1.76e-12
Cjs:      0.00e+00    0.00e+00    0.00e+00    0.00e+00    0.00e+00
BetaAC:   2.00e+02    1.76e+02    2.21e+02    2.91e+02    3.16e+02
Cbx:      0.00e+00    0.00e+00    0.00e+00    0.00e+00    0.00e+00
Ft:       6.54e+00    3.70e+08    3.88e+08    3.96e+08    3.86e+08

Name:       q1
Model:    2n3904
Ib:       3.66e-05
Ic:       1.20e-02
Vbe:      7.19e-01
Vbc:     -1.20e+01
Vce:      1.27e+01
BetaDC:   3.27e+02
Gm:       4.51e-01
Rpi:      7.07e+02
Rx:       2.00e+01
Ro:       9.36e+03
Cbe:      1.71e-10
Cbc:      1.57e-12
Cjs:      0.00e+00
BetaAC:   3.19e+02
Cbx:      0.00e+00
Ft:       4.16e+08



Date: Thu Apr 29 21:10:53 2021
Total elapsed time: 0.619 seconds.

tnom = 27
temp = 27
method = trap
totiter = 8
traniter = 0
tranpoints = 0
accept = 0
rejected = 0
matrix size = 41
fillins = 30
solver = Normal
Matrix Compiler1:     243 opcodes
Matrix Compiler2: 4.09 KB object code size
